EC-Lab ASCII FILE
Nb header lines : 62                          

Potentio Electrochemical Impedance Spectroscopy

Run on channel : 1 (SN 5836)
User : 
Electrode connection : standard
Ewe ctrl range : min = -10.00 V, max = 10.00 V
Ewe,I filtering : <None>
Safety Limits :
	Do not start on E overload
Channel : Grounded
Acquisition started on : 05/05/2022 15:55:02
Saved on :
	File : multiple_techniques_dataset_01_01_PEIS_C01.mpr
	Directory : C:\Users\Spectro Inlets\Desktop\Zilien Data Dir\multiple_techniques_dataset\
	Host : 192.168.1.105
Device : SP-200 (SN 0763)
Address : USB
EC-Lab for windows v11.27 (software)
Internet server v11.25 (firmware)
Command interpretor v11.27 (firmware)
Electrode material : 
Initial state : 
Electrolyte : 
Comments : 
Cable : standard
Electrode surface area : 0.001 cm²
Characteristic mass : 0.001 g
Equivalent Weight : 0.000 g/eq.
Density : 0.000 g/cm3
Cycle Definition : Charge/Discharge alternance
Mode                Single sine         
E (V)               1.0000              
vs.                 Ref                 
tE (h:m:s)          0:00:0.0000         
record              0                   
dI                  0.000               
unit dI             mA                  
dt (s)              0.000               
fi                  1.000               
unit fi             MHz                 
ff                  10.000              
unit ff             Hz                  
Nd                  6                   
Points              per decade          
spacing             Logarithmic         
Va (mV)             10.0                
pw                  0.10                
Na                  4                   
corr                0                   
E range min (V)     -10.000             
E range max (V)     10.000              
I Range             1 A                 
Bandwidth           8                   
nc cycles           0                   
goto Ns'            0                   
nr cycles           0                   
inc. cycle          0                   

freq/Hz	Re(Z)/Ohm	-Im(Z)/Ohm	|Z|/Ohm	Phase(Z)/deg	time/s	<Ewe>/V	<I>/mA	Cs/µF	Cp/µF	cycle number	I Range	|Ewe|/V	|I|/A	(Q-Qo)/mA.h	Re(Y)/Ohm-1	Im(Y)/Ohm-1	|Y|/Ohm-1	Phase(Y)/deg	<I>/mA	dq/mA.h	
1.0000186E+006	1.0917517E+003	9.8199841E+002	1.4684150E+003	-4.1970444E+001	1.311474115616875E+000	1.0004233E+000	-2.3689946E-002	1.6206950E-004	7.2481169E-005	1.000000000000000E+000	37	8.9651532E-003	6.1053265E-006	-4.639940370881858E-006	5.0632132E-004	4.5542108E-004	6.8100635E-004	4.1970444E+001	0.000000000000000E+000	-4.639940370881858E-006
6.8129269E+005	1.4582393E+003	1.1207581E+003	1.8391738E+003	-3.7544777E+001	1.975457320484566E+000	1.0004194E+000	-2.5068698E-002	2.0843688E-004	7.7402095E-005	1.000000000000000E+000	37	1.0338020E-002	5.6210129E-006	-9.062623189537893E-006	4.3110517E-004	3.3133425E-004	5.4372242E-004	3.7544777E+001	-2.397900734602823E-002	-4.422682818656035E-006
4.6415716E+005	2.1965632E+003	1.0500353E+003	2.4346384E+003	-2.5549458E+001	2.638477671978762E+000	1.0004040E+000	-2.9745277E-002	3.2655112E-004	6.0742128E-005	1.000000000000000E+000	37	1.0610316E-002	4.3580662E-006	-1.449801329847509E-005	3.7057383E-004	1.7714748E-004	4.1073860E-004	2.5549458E+001	-2.951252453725802E-002	-5.435390108937200E-006
3.1622997E+005	1.4582236E+003	-1.8112886E+003	2.3253350E+003	5.1163319E+001	3.302461223473074E+000	1.0004063E+000	-3.1049503E-002	-2.7786219E-004	-1.6859073E-004	1.000000000000000E+000	37	1.0497220E-002	4.5142829E-006	-2.037432475374084E-005	2.6968270E-004	-3.3497825E-004	4.3004556E-004	-5.1163319E+001	-3.186030917685757E-002	-5.876311455265749E-006
2.1544686E+005	1.3549156E+003	-4.0788794E+002	1.4149802E+003	1.6754057E+001	3.966464588389499E+000	1.0004154E+000	-3.1999726E-002	-1.8110862E-003	-1.5049432E-004	1.000000000000000E+000	37	1.0399282E-002	7.3494184E-006	-2.673747921784040E-005	6.7672390E-004	-2.0372304E-004	7.0672366E-004	-1.6754057E+001	-3.449885539908617E-002	-6.363154464099555E-006
1.4677664E+005	7.3032672E+002	-2.3203979E+003	2.4326167E+003	7.2529022E+001	4.630478859908180E+000	1.0004123E+000	-3.7663784E-002	-4.6730533E-004	-4.2518537E-004	1.000000000000000E+000	37	1.0383711E-002	4.2685356E-006	-3.345993608667534E-005	1.2341552E-004	-3.9211649E-004	4.1107996E-004	-7.2529022E+001	-3.644627196408827E-002	-6.722456868834947E-006
1.0000371E+005	8.6167261E+002	-2.0980623E+003	2.2681147E+003	6.7672081E+001	5.294455904775532E+000	1.0004183E+000	-4.7110103E-002	-7.5855246E-004	-6.4907118E-004	1.000000000000000E+000	37	1.0159283E-002	4.4791750E-006	-4.181160458686807E-005	1.6749901E-004	-4.0783858E-004	4.4089480E-004	-6.7672081E+001	-4.528169585546492E-002	-8.351668500192724E-006
6.8132047E+004	1.1324000E+003	-1.0496987E+003	1.5440846E+003	4.2829536E+001	5.828470676817233E+000	1.0004127E+000	-4.6346199E-002	-2.2253792E-003	-1.0284689E-003	1.000000000000000E+000	37	1.0844326E-002	7.0231422E-006	-4.875882314018721E-005	4.7496072E-004	-4.4027346E-004	6.4763293E-004	-4.2829536E+001	-4.683388569257761E-002	-6.947218553319139E-006
4.6420352E+004	3.6173483E+002	-8.1861139E+002	8.9497302E+002	6.6159927E+001	6.492467881675111E+000	1.0004314E+000	-5.0780565E-002	-4.1882629E-003	-3.5040446E-003	1.000000000000000E+000	37	1.0105940E-002	1.1291893E-005	-5.787702091354488E-005	4.5161712E-004	-1.0220165E-003	1.1173522E-003	-6.6159927E+001	-4.943622012853743E-002	-9.118197773357678E-006
3.1621143E+004	1.3751671E+002	-6.2311780E+002	6.3811176E+002	7.7554802E+001	7.026465000380995E+000	1.0004339E+000	-5.1954366E-002	-8.0774156E-003	-7.7022789E-003	1.000000000000000E+000	37	1.0198846E-002	1.5982852E-005	-6.527428492578110E-005	3.3772408E-004	-1.5303002E-003	1.5671236E-003	-7.7554802E+001	-4.986946466787550E-002	-7.397264012236217E-006
2.1544688E+004	1.4419345E+002	-5.6407397E+002	5.8221234E+002	7.5660637E+001	7.560469185729744E+000	1.0004035E+000	-5.2997749E-002	-1.3096157E-002	-1.2292867E-002	1.000000000000000E+000	37	1.0174853E-002	1.7476188E-005	-7.286470833771940E-005	4.2538549E-004	-1.6640763E-003	1.7175864E-003	-7.5660637E+001	-5.117099272383423E-002	-7.590423411938296E-006
1.4678590E+004	6.0673351E+001	-3.9423785E+002	3.9887936E+002	8.1250801E+001	8.094466171081876E+000	1.0004233E+000	-5.0761934E-002	-2.7502837E-002	-2.6866494E-002	1.000000000000000E+000	37	9.9633085E-003	2.4978250E-005	-8.041022893608776E-005	3.8134231E-004	-2.4778510E-003	2.5070237E-003	-8.1250801E+001	-5.086896536731102E-002	-7.545520598368366E-006
1.0002226E+004	4.6184891E+001	-2.5645370E+002	2.6057925E+002	7.9791000E+001	8.628472436481388E+000	1.0004295E+000	-5.2550584E-002	-6.2046099E-002	-6.0097001E-002	1.000000000000000E+000	37	9.4768545E-003	3.6368416E-005	-8.787609937694166E-005	6.8017439E-004	-3.7768462E-003	3.8376041E-003	-7.9791000E+001	-5.033112030430235E-002	-7.465870440853900E-006
6.9633125E+003	3.1884668E+001	-1.8332735E+002	1.8607941E+002	8.0133690E+001	9.315920282475417E+000	1.0003853E+000	-4.6048090E-002	-1.2467432E-001	-1.2101380E-001	1.000000000000000E+000	37	1.0756280E-002	5.7804788E-005	-9.647535516924917E-005	9.2084252E-004	-5.2945688E-003	5.3740498E-003	-8.0133690E+001	-4.503224649361386E-002	-8.599255792307505E-006
4.6414883E+003	1.5637408E+001	-1.2622853E+002	1.2719344E+002	8.2938080E+001	1.020868240491109E+001	1.0004195E+000	-4.7426842E-002	-2.7164727E-001	-2.6754141E-001	1.000000000000000E+000	37	1.0803252E-002	8.4935607E-005	-1.080797333907895E-004	9.6657447E-004	-7.8023984E-003	7.8620408E-003	-8.2938080E+001	-4.679383292334469E-002	-1.160437822154037E-005
3.1630398E+003	1.3927791E+001	-8.2629791E+001	8.3795380E+001	8.0432358E+001	1.109955122051178E+001	1.0003959E+000	-3.9843705E-002	-6.0894608E-001	-5.9212309E-001	1.000000000000000E+000	37	1.0778704E-002	1.2863125E-004	-1.185904599457378E-004	1.9835448E-003	-1.1767833E-002	1.1933832E-002	-8.0432358E+001	-4.247383558071872E-002	-1.051072655494824E-005
2.1543130E+003	9.7677336E+000	-5.5436054E+001	5.6290005E+001	8.0007156E+001	1.199080734288145E+001	1.0004019E+000	-3.6676299E-002	-1.3326590E+000	-1.2925314E+000	1.000000000000000E+000	37	1.0708851E-002	1.9024427E-004	-1.279636861681704E-004	3.0826996E-003	-1.7495636E-002	1.7765144E-002	-8.0007156E+001	-3.786073784384214E-002	-9.373226222432585E-006
1.4676526E+003	9.2435551E+000	-3.6537971E+001	3.7689079E+001	7.5802910E+001	1.288207399853854E+001	1.0004135E+000	-3.9750546E-002	-2.9679217E+000	-2.7893965E+000	1.000000000000000E+000	37	1.0502134E-002	2.7865192E-004	-1.381555261331830E-004	6.5074060E-003	-2.5722513E-002	2.6532885E-002	-7.5802910E+001	-4.116683109500514E-002	-1.019183996501266E-005
9.9968164E+002	8.9183693E+000	-2.2584297E+001	2.4281429E+001	6.8451309E+001	1.377280873418204E+001	1.0004588E+000	-3.8595371E-002	-7.0493946E+000	-6.0984082E+000	1.000000000000000E+000	37	1.0088259E-002	4.1547223E-004	-1.477434291201482E-004	1.5126447E-002	-3.8305230E-002	4.1183736E-002	-6.8451309E+001	-3.875053859681245E-002	-9.587902986965178E-006
6.8108960E+002	9.0117693E+000	-1.2330466E+001	1.5272602E+001	5.3838654E+001	1.466341509643826E+001	1.0005333E+000	-3.6993042E-002	-1.8951185E+001	-1.2352911E+001	1.000000000000000E+000	37	9.5904032E-003	6.2794820E-004	-1.573185423421641E-004	3.8635273E-002	-5.2863199E-002	6.5476730E-002	-5.3838654E+001	-3.870442550166779E-002	-9.575113222015912E-006
4.6425687E+002	9.2018204E+000	-4.5939412E+000	1.0284833E+001	2.6530327E+001	1.555405425876961E+001	1.0003853E+000	-4.9103681E-002	-7.4623627E+001	-1.4888561E+001	1.000000000000000E+000	37	9.9274553E-003	9.6525194E-004	-1.682892882953100E-004	8.6991988E-002	-4.3430112E-002	9.7230554E-002	-2.6530327E+001	-4.434420481572276E-002	-1.097074595314592E-005
3.1631589E+002	8.4842062E+000	1.7728609E+000	8.6674557E+000	-1.1802705E+001	1.644093771424377E+001	1.0013518E+000	-3.8576715E-002	2.8380789E+002	1.1873822E+001	1.000000000000000E+000	37	9.6999677E-003	1.1191252E-003	-1.791180519244841E-004	1.1293484E-001	2.3598881E-002	1.1537411E-001	1.1802705E+001	-4.395566161980592E-002	-1.082876362917403E-005
2.1548271E+002	5.4165382E+000	8.8531647E+000	1.0378700E+001	-5.8540897E+001	1.906628069226281E+001	1.0007445E+000	-3.8148187E-002	8.3427483E+001	6.0704418E+001	1.000000000000000E+000	37	1.0809283E-002	1.0414871E-003	-2.061253344731781E-004	5.0284699E-002	8.2188800E-002	9.6351177E-002	5.8540897E+001	-3.703372016126477E-002	-2.700728254869400E-005
1.4673770E+002	-2.1292880E+000	2.1714056E+001	2.1818205E+001	-9.5600540E+001	2.102239315849147E+001	1.0002680E+000	-4.1781407E-002	4.9950230E+001	4.9474491E+001	1.000000000000000E+000	37	9.4637917E-003	4.3375665E-004	-2.272156727191937E-004	-4.4729752E-003	4.5614500E-002	4.5833286E-002	9.5600540E+001	-3.881434170911369E-002	-2.109033824601565E-005
9.9968163E+001	-1.1096429E+001	4.4948254E+001	4.6297691E+001	-1.0386739E+002	2.213079854450189E+001	1.0002801E+000	-4.1129299E-002	3.5419762E+001	3.3385094E+001	1.000000000000000E+000	37	9.3312860E-003	2.0154970E-004	-2.406811193338492E-004	-5.1768362E-003	2.0969793E-002	2.1599349E-002	1.0386739E+002	-4.373454732770863E-002	-1.346544661465549E-005
6.8146439E+001	-1.8266943E+001	8.1587044E+001	8.3606979E+001	-1.0262012E+002	2.326519787832513E+001	1.0002987E+000	-4.4464391E-002	2.8625677E+001	2.7259199E+001	1.000000000000000E+000	37	9.8323859E-003	1.1760245E-004	-2.529159249532265E-004	-2.6132495E-003	1.1671755E-002	1.1960724E-002	1.0262012E+002	-3.882697998535783E-002	-1.223480561937727E-005
4.6410858E+001	-1.5800560E+001	1.3839839E+002	1.3929742E+002	-9.6513100E+001	2.413064615950498E+001	1.0003158E+000	-3.9955493E-002	2.4778185E+001	2.4459377E+001	1.000000000000000E+000	37	9.3437415E-003	6.7077635E-005	-2.628139981108931E-004	-8.1430346E-004	7.1325507E-003	7.1788835E-003	9.6513100E+001	-4.117295526778560E-002	-9.898073157666657E-006
3.1629578E+001	-2.6854403E+001	2.2139799E+002	2.2302069E+002	-9.6915894E+001	2.498044337311876E+001	1.0002977E+000	-3.3993319E-002	2.2727573E+001	2.2398045E+001	1.000000000000000E+000	37	9.1513768E-003	4.1033756E-005	-2.714903845696018E-004	-5.3991500E-004	4.4512642E-003	4.4838889E-003	9.6915894E+001	-3.675581744793403E-002	-8.676386458708672E-006
2.1551699E+001	8.8343048E+000	2.9846671E+002	2.9859741E+002	-8.8304596E+001	2.581334575937944E+001	1.0002966E+000	-3.5670180E-002	2.4742451E+001	2.4720795E+001	1.000000000000000E+000	37	9.0873512E-003	3.0433457E-005	-2.804573531640150E-004	9.9083460E-005	3.3475247E-003	3.3489908E-003	8.8304596E+001	-3.875734716623108E-002	-8.966968594413234E-006
1.4675930E+001	1.2106973E+001	4.4630972E+002	4.4647391E+002	-8.8446129E+001	2.672217849586741E+001	1.0002846E+000	-3.4086481E-002	2.4298426E+001	2.4280560E+001	1.000000000000000E+000	37	9.0336623E-003	2.0233349E-005	-2.899205569730063E-004	6.0735561E-005	2.2389491E-003	2.2397726E-003	8.8446129E+001	-3.748493242443803E-002	-9.463203808991250E-006
9.9968166E+000	-3.5703594E+001	4.9043222E+002	4.9173013E+002	-9.4163803E+001	2.761281917821907E+001	1.0003198E+000	-3.6899880E-002	3.2462307E+001	3.2291168E+001	1.000000000000000E+000	37	9.1075767E-003	1.8521494E-005	-2.996122758826629E-004	-1.4765847E-004	2.0282681E-003	2.0336357E-003	9.4163803E+001	-3.917425822346148E-002	-9.691718909656617E-006